
T1614 000:068 SEGGER J-Link V5.40c Log File (0001ms, 0014ms total)
T1614 000:068 DLL Compiled: Jul 13 2016 11:53:49 (0001ms, 0014ms total)
T1614 000:068 Logging started @ 2020-01-23 20:32 (0001ms, 0014ms total)
T1614 000:069 JLINK_SetWarnOutHandler(...) (0000ms, 0014ms total)
T1614 000:069 JLINK_OpenEx(...)
Firmware: J-Link ARM-OB STM32 compiled Aug 22 2012 19:52:04
Hardware: V7.00
S/N: 20170415
Feature(s): RDI,FlashDL,FlashBP,JFlash,GDBFull  returns O.K. (0010ms, 0024ms total)
T1614 000:079 JLINK_SetErrorOutHandler(...) (0000ms, 0024ms total)
T1614 000:079 JLINK_ExecCommand("ProjectFile = "F:\临时文件\毕业设计\迷宫小车\固件\迷宫小车\USER\JLinkSettings.ini"", ...)  returns 0x00 (0180ms, 0204ms total)
T1614 000:261 JLINK_ExecCommand("Device = STM32F103RC", ...)Device "STM32F103RC" selected.  returns 0x00 (0002ms, 0206ms total)
T1614 000:263 JLINK_ExecCommand("DisableConnectionTimeout", ...)  returns 0x01 (0000ms, 0206ms total)
T1614 000:263 JLINK_GetHardwareVersion()  returns 0x11170 (0000ms, 0206ms total)
T1614 000:263 JLINK_GetDLLVersion()  returns 54003 (0000ms, 0206ms total)
T1614 000:263 JLINK_GetFirmwareString(...) (0000ms, 0206ms total)
T1614 000:279 JLINK_GetDLLVersion()  returns 54003 (0000ms, 0206ms total)
T1614 000:279 JLINK_GetCompileDateTime() (0000ms, 0206ms total)
T1614 000:282 JLINK_GetFirmwareString(...) (0000ms, 0206ms total)
T1614 000:286 JLINK_GetHardwareVersion()  returns 0x11170 (0000ms, 0206ms total)
T1614 000:296 JLINK_TIF_Select(JLINKARM_TIF_SWD)  returns 0x00 (0001ms, 0207ms total)
T1614 000:297 JLINK_SetSpeed(10000) (0000ms, 0207ms total)
T1614 000:297 JLINK_GetId() >0x108 TIF>Found SWD-DP with ID 0x1BA01477 >0x0D TIF> >0x28 TIF> >0x0D TIF> >0x28 TIF> >0x0D TIF> >0x28 TIF> >0x0D TIF> >0x28 TIF> >0x0D TIF> >0x21 TIF> >0x0D TIF> >0x28 TIF> >0x0D TIF> >0x28 TIF> >0x0D TIF> >0x28 TIF> >0x0D TIF> >0x21 TIF> >0x0D TIF> >0x21 TIF> >0x0D TIF> >0x28 TIF> >0x0D TIF> >0x21 TIF> >0x0D TIF> >0x21 TIF> >0x0D TIF> >0x28 TIF> >0x0D TIF> >0x28 TIF> >0x0D TIF> >0x28 TIF> >0x0D TIF> >0x21 TIF> >0x0D TIF> >0x21 TIF> >0x0D TIF> >0x28 TIF> >0x0D TIF>
 >0x21 TIF> >0x0D TIF> >0x21 TIF> >0x0D TIF> >0x28 TIF> >0x0D TIF> >0x21 TIF> >0x0D TIF> >0x21 TIF> >0x0D TIF> >0x28 TIF> >0x0D TIF> >0x21 TIF> >0x0D TIF> >0x21 TIF> >0x108 TIF>Found SWD-DP with ID 0x1BA01477 >0x0D TIF> >0x28 TIF> >0x0D TIF> >0x28 TIF> >0x0D TIF> >0x28 TIF> >0x0D TIF> >0x28 TIF> >0x0D TIF> >0x21 TIF> >0x0D TIF> >0x28 TIF> >0x0D TIF> >0x28 TIF> >0x0D TIF> >0x21 TIF> >0x0D TIF> >0x21 TIF> >0x0D TIF> >0x21 TIF>AP-IDR: 0x14770011, Type: AHB-AP >0x0D TIF> >0x28 TIF> >0x0D TIF> >0x28 TIF>
 >0x0D TIF> >0x28 TIF> >0x0D TIF> >0x21 TIF> >0x0D TIF> >0x21 TIF> >0x0D TIF> >0x28 TIF> >0x0D TIF> >0x21 TIF> >0x0D TIF> >0x21 TIF>Found Cortex-M3 r1p1, Little endian. -- CPU_ReadMem(4 bytes @ 0xE000EDF0) -- CPU_WriteMem(4 bytes @ 0xE000EDF0) -- CPU_ReadMem(4 bytes @ 0xE0002000)FPUnit: 6 code (BP) slots and 2 literal slots -- CPU_ReadMem(4 bytes @ 0xE000EDFC) -- CPU_WriteMem(4 bytes @ 0xE000EDFC) -- CPU_ReadMem(4 bytes @ 0xE0001000) -- CPU_WriteMem(4 bytes @ 0xE0001000)
 -- CPU_ReadMem(4 bytes @ 0xE000ED88) -- CPU_WriteMem(4 bytes @ 0xE000ED88) -- CPU_ReadMem(4 bytes @ 0xE000ED88) -- CPU_WriteMem(4 bytes @ 0xE000ED88)CoreSight components:ROMTbl 0 @ E00FF000 -- CPU_ReadMem(16 bytes @ 0xE00FF000) -- CPU_ReadMem(16 bytes @ 0xE000EFF0) -- CPU_ReadMem(16 bytes @ 0xE000EFE0)ROMTbl 0 [0]: FFF0F000, CID: B105E00D, PID: 001BB000 SCS -- CPU_ReadMem(16 bytes @ 0xE0001FF0) -- CPU_ReadMem(16 bytes @ 0xE0001FE0)ROMTbl 0 [1]: FFF02000, CID: B105E00D, PID: 001BB002 DWT
 -- CPU_ReadMem(16 bytes @ 0xE0002FF0) -- CPU_ReadMem(16 bytes @ 0xE0002FE0)ROMTbl 0 [2]: FFF03000, CID: B105E00D, PID: 000BB003 FPB -- CPU_ReadMem(16 bytes @ 0xE0000FF0) -- CPU_ReadMem(16 bytes @ 0xE0000FE0)ROMTbl 0 [3]: FFF01000, CID: B105E00D, PID: 001BB001 ITM -- CPU_ReadMem(16 bytes @ 0xE00FF010) -- CPU_ReadMem(16 bytes @ 0xE0040FF0) -- CPU_ReadMem(16 bytes @ 0xE0040FE0)ROMTbl 0 [4]: FFF41000, CID: B105900D, PID: 001BB923 TPIU-Lite >0x0D TIF> >0x21 TIF>  returns 0x1BA01477 (0074ms, 0281ms total)
T1614 000:371 JLINK_GetDeviceFamily()  returns 3 (0000ms, 0281ms total)
T1614 000:374 JLINK_ReadMem (0xE00FFFF0, 0x0010 Bytes, ...) -- CPU is running -- CPU_ReadMem(16 bytes @ 0xE00FFFF0) - Data: 0D 00 00 00 10 00 00 00 05 00 00 00 B1 00 00 00  returns 0x00 (0001ms, 0282ms total)
T1614 000:375 JLINK_ReadMem (0xE00FFFD0, 0x0020 Bytes, ...) -- CPU is running -- CPU_ReadMem(32 bytes @ 0xE00FFFD0) - Data: 00 00 00 00 00 00 00 00 00 00 00 00 00 00 00 00 ...  returns 0x00 (0001ms, 0283ms total)
T1614 000:376 JLINK_ReadMem (0xE00FF000, 0x0018 Bytes, ...) -- CPU is running -- CPU_ReadMem(24 bytes @ 0xE00FF000) - Data: 03 F0 F0 FF 03 20 F0 FF 03 30 F0 FF 03 10 F0 FF ...  returns 0x00 (0001ms, 0284ms total)
T1614 000:377 JLINK_ReadMemU32(0xE000ED00, 0x0001 Items, ...) -- CPU is running -- CPU_ReadMem(4 bytes @ 0xE000ED00) - Data: 31 C2 1F 41  returns 0x01 (0000ms, 0284ms total)
T1614 000:377 JLINK_SetResetType(JLINKARM_RESET_TYPE_NORMAL)  returns JLINKARM_RESET_TYPE_NORMAL (0000ms, 0284ms total)
T1614 000:377 JLINK_Reset() -- CPU is running -- CPU_WriteMem(4 bytes @ 0xE000EDF0) -- CPU is running -- CPU_WriteMem(4 bytes @ 0xE000EDFC) >0x35 TIF> -- CPU is running -- CPU_WriteMem(4 bytes @ 0xE000ED0C) -- CPU is running -- CPU_ReadMem(4 bytes @ 0xE000EDF0) -- CPU is running -- CPU_ReadMem(4 bytes @ 0xE000EDF0) -- CPU is running -- CPU_WriteMem(4 bytes @ 0xE000EDF0) -- CPU is running -- CPU_WriteMem(4 bytes @ 0xE000EDFC) -- CPU is running -- CPU_ReadMem(4 bytes @ 0xE000EDF0)
 -- CPU_WriteMem(4 bytes @ 0xE0002000) -- CPU_ReadMem(4 bytes @ 0xE000EDFC) -- CPU_ReadMem(4 bytes @ 0xE0001000) (0020ms, 0304ms total)
T1614 000:397 JLINK_Halt()  returns 0x00 (0000ms, 0304ms total)
T1614 000:397 JLINK_IsHalted()  returns TRUE (0000ms, 0304ms total)
T1614 000:397 JLINK_ReadMemU32(0xE000EDF0, 0x0001 Items, ...) -- CPU_ReadMem(4 bytes @ 0xE000EDF0) - Data: 03 00 03 00  returns 0x01 (0001ms, 0305ms total)
T1614 000:398 JLINK_WriteU32(0xE000EDF0, 0xA05F0003) -- CPU_WriteMem(4 bytes @ 0xE000EDF0)  returns 0x00 (0000ms, 0305ms total)
T1614 000:399 JLINK_WriteU32(0xE000EDFC, 0x01000000) -- CPU_WriteMem(4 bytes @ 0xE000EDFC)  returns 0x00 (0000ms, 0306ms total)
T1614 000:411 JLINK_GetHWStatus(...)  returns 0x00 (0000ms, 0306ms total)
T1614 000:421 JLINK_GetNumBPUnits(Type = 0xFFFFFF00)  returns 0x06 (0000ms, 0306ms total)
T1614 000:421 JLINK_GetNumBPUnits(Type = 0xF0)  returns 0x2000 (0000ms, 0306ms total)
T1614 000:421 JLINK_GetNumWPUnits()  returns 0x04 (0000ms, 0306ms total)
T1614 000:429 JLINK_GetSpeed()  returns 0xFA0 (0000ms, 0306ms total)
T1614 000:439 JLINK_ReadMemU32(0xE000E004, 0x0001 Items, ...) -- CPU_ReadMem(4 bytes @ 0xE000E004) - Data: 01 00 00 00  returns 0x01 (0001ms, 0307ms total)
T1614 000:440 JLINK_ReadMemU32(0xE000E004, 0x0001 Items, ...) -- CPU_ReadMem(4 bytes @ 0xE000E004) - Data: 01 00 00 00  returns 0x01 (0001ms, 0308ms total)
T1614 000:441 JLINK_WriteMem(0xE0001000, 0x001C Bytes, ...) - Data: 01 00 00 00 00 00 00 00 00 00 00 00 00 00 00 00 ... -- CPU_WriteMem(28 bytes @ 0xE0001000)  returns 0x1C (0002ms, 0310ms total)
T1614 000:443 JLINK_ReadMem (0xE0001000, 0x001C Bytes, ...) -- CPU_ReadMem(28 bytes @ 0xE0001000) - Data: 01 00 00 40 00 00 00 00 00 00 00 00 00 00 00 00 ...  returns 0x00 (0001ms, 0311ms total)
T1614 000:444 JLINK_Halt()  returns 0x00 (0000ms, 0311ms total)
T1614 000:444 JLINK_IsHalted()  returns TRUE (0000ms, 0311ms total)
T1614 000:446 JLINK_WriteMem(0x20000000, 0x0164 Bytes, ...) - Data: 00 BE 0A E0 0D 78 2D 06 68 40 08 24 40 00 00 D3 ... -- CPU_WriteMem(356 bytes @ 0x20000000)  returns 0x164 (0006ms, 0317ms total)
T1614 000:452 JLINK_WriteReg(R0, 0x08000000)  returns 0x00 (0000ms, 0317ms total)
T1614 000:452 JLINK_WriteReg(R1, 0x007A1200)  returns 0x00 (0000ms, 0317ms total)
T1614 000:452 JLINK_WriteReg(R2, 0x00000001)  returns 0x00 (0000ms, 0317ms total)
T1614 000:452 JLINK_WriteReg(R3, 0x00000000)  returns 0x00 (0000ms, 0317ms total)
T1614 000:452 JLINK_WriteReg(R4, 0x00000000)  returns 0x00 (0000ms, 0317ms total)
T1614 000:452 JLINK_WriteReg(R5, 0x00000000)  returns 0x00 (0000ms, 0317ms total)
T1614 000:452 JLINK_WriteReg(R6, 0x00000000)  returns 0x00 (0000ms, 0317ms total)
T1614 000:452 JLINK_WriteReg(R7, 0x00000000)  returns 0x00 (0000ms, 0317ms total)
T1614 000:452 JLINK_WriteReg(R8, 0x00000000)  returns 0x00 (0000ms, 0317ms total)
T1614 000:452 JLINK_WriteReg(R9, 0x20000160)  returns 0x00 (0000ms, 0317ms total)
T1614 000:452 JLINK_WriteReg(R10, 0x00000000)  returns 0x00 (0000ms, 0317ms total)
T1614 000:452 JLINK_WriteReg(R11, 0x00000000)  returns 0x00 (0000ms, 0317ms total)
T1614 000:452 JLINK_WriteReg(R12, 0x00000000)  returns 0x00 (0000ms, 0317ms total)
T1614 000:452 JLINK_WriteReg(R13 (SP), 0x20001000)  returns 0x00 (0000ms, 0317ms total)
T1614 000:452 JLINK_WriteReg(R14, 0x20000001)  returns 0x00 (0000ms, 0317ms total)
T1614 000:452 JLINK_WriteReg(R15 (PC), 0x20000038)  returns 0x00 (0001ms, 0318ms total)
T1614 000:453 JLINK_WriteReg(XPSR, 0x01000000)  returns 0x00 (0000ms, 0318ms total)
T1614 000:453 JLINK_WriteReg(MSP, 0x20001000)  returns 0x00 (0000ms, 0318ms total)
T1614 000:453 JLINK_WriteReg(PSP, 0x20001000)  returns 0x00 (0000ms, 0318ms total)
T1614 000:453 JLINK_WriteReg(CFBP, 0x00000000)  returns 0x00 (0000ms, 0318ms total)
T1614 000:453 JLINK_SetBPEx(Addr = 0x20000000, Type = 0xFFFFFFF2) -- CPU_ReadMem(2 bytes @ 0x20000000)  returns 0x00000001 (0000ms, 0318ms total)
T1614 000:453 JLINK_Go() -- CPU_WriteMem(2 bytes @ 0x20000000) -- CPU_ReadMem(4 bytes @ 0xE0001000) -- CPU_WriteMem(4 bytes @ 0xE0002008) -- CPU_WriteMem(4 bytes @ 0xE000200C) -- CPU_WriteMem(4 bytes @ 0xE0002010) -- CPU_WriteMem(4 bytes @ 0xE0002014) -- CPU_WriteMem(4 bytes @ 0xE0002018) -- CPU_WriteMem(4 bytes @ 0xE000201C) -- CPU_WriteMem(4 bytes @ 0xE0001004) (0008ms, 0326ms total)
T1614 000:461 JLINK_IsHalted() -- CPU_ReadMem(2 bytes @ 0x20000000)  returns TRUE (0003ms, 0329ms total)
T1614 000:464 JLINK_ReadReg(R15 (PC))  returns 0x20000000 (0000ms, 0326ms total)
T1614 000:464 JLINK_ClrBPEx(BPHandle = 0x00000001)  returns 0x00 (0000ms, 0326ms total)
T1614 000:464 JLINK_ReadReg(R0)  returns 0x00000000 (0000ms, 0326ms total)
T1614 000:466 JLINK_WriteReg(R0, 0x08000000)  returns 0x00 (0000ms, 0326ms total)
T1614 000:466 JLINK_WriteReg(R1, 0x00000800)  returns 0x00 (0000ms, 0326ms total)
T1614 000:466 JLINK_WriteReg(R2, 0x000000FF)  returns 0x00 (0000ms, 0326ms total)
T1614 000:466 JLINK_WriteReg(R3, 0x00000000)  returns 0x00 (0000ms, 0326ms total)
T1614 000:466 JLINK_WriteReg(R4, 0x00000000)  returns 0x00 (0000ms, 0326ms total)
T1614 000:466 JLINK_WriteReg(R5, 0x00000000)  returns 0x00 (0000ms, 0326ms total)
T1614 000:466 JLINK_WriteReg(R6, 0x00000000)  returns 0x00 (0000ms, 0326ms total)
T1614 000:466 JLINK_WriteReg(R7, 0x00000000)  returns 0x00 (0000ms, 0326ms total)
T1614 000:466 JLINK_WriteReg(R8, 0x00000000)  returns 0x00 (0000ms, 0326ms total)
T1614 000:466 JLINK_WriteReg(R9, 0x20000160)  returns 0x00 (0000ms, 0326ms total)
T1614 000:466 JLINK_WriteReg(R10, 0x00000000)  returns 0x00 (0000ms, 0326ms total)
T1614 000:466 JLINK_WriteReg(R11, 0x00000000)  returns 0x00 (0000ms, 0326ms total)
T1614 000:466 JLINK_WriteReg(R12, 0x00000000)  returns 0x00 (0000ms, 0326ms total)
T1614 000:466 JLINK_WriteReg(R13 (SP), 0x20001000)  returns 0x00 (0000ms, 0326ms total)
T1614 000:466 JLINK_WriteReg(R14, 0x20000001)  returns 0x00 (0000ms, 0326ms total)
T1614 000:466 JLINK_WriteReg(R15 (PC), 0x20000020)  returns 0x00 (0000ms, 0326ms total)
T1614 000:466 JLINK_WriteReg(XPSR, 0x01000000)  returns 0x00 (0000ms, 0326ms total)
T1614 000:466 JLINK_WriteReg(MSP, 0x20001000)  returns 0x00 (0000ms, 0326ms total)
T1614 000:466 JLINK_WriteReg(PSP, 0x20001000)  returns 0x00 (0000ms, 0326ms total)
T1614 000:466 JLINK_WriteReg(CFBP, 0x00000000)  returns 0x00 (0000ms, 0326ms total)
T1614 000:466 JLINK_SetBPEx(Addr = 0x20000000, Type = 0xFFFFFFF2)  returns 0x00000002 (0000ms, 0326ms total)
T1614 000:466 JLINK_Go() -- CPU_ReadMem(4 bytes @ 0xE0001000) (0002ms, 0328ms total)
T1614 000:469 JLINK_IsHalted()  returns FALSE (0000ms, 0329ms total)
T1614 000:553 JLINK_IsHalted() -- CPU_ReadMem(2 bytes @ 0x20000000)  returns TRUE (0003ms, 0332ms total)
T1614 000:556 JLINK_ReadReg(R15 (PC))  returns 0x20000000 (0000ms, 0329ms total)
T1614 000:556 JLINK_ClrBPEx(BPHandle = 0x00000002)  returns 0x00 (0000ms, 0329ms total)
T1614 000:556 JLINK_ReadReg(R0)  returns 0x00000000 (0000ms, 0329ms total)
T1614 000:557 JLINK_WriteReg(R0, 0x08000800)  returns 0x00 (0000ms, 0329ms total)
T1614 000:557 JLINK_WriteReg(R1, 0x00000800)  returns 0x00 (0000ms, 0329ms total)
T1614 000:557 JLINK_WriteReg(R2, 0x000000FF)  returns 0x00 (0000ms, 0329ms total)
T1614 000:557 JLINK_WriteReg(R3, 0x00000000)  returns 0x00 (0000ms, 0329ms total)
T1614 000:557 JLINK_WriteReg(R4, 0x00000000)  returns 0x00 (0000ms, 0329ms total)
T1614 000:557 JLINK_WriteReg(R5, 0x00000000)  returns 0x00 (0000ms, 0329ms total)
T1614 000:557 JLINK_WriteReg(R6, 0x00000000)  returns 0x00 (0000ms, 0329ms total)
T1614 000:557 JLINK_WriteReg(R7, 0x00000000)  returns 0x00 (0000ms, 0329ms total)
T1614 000:557 JLINK_WriteReg(R8, 0x00000000)  returns 0x00 (0000ms, 0329ms total)
T1614 000:557 JLINK_WriteReg(R9, 0x20000160)  returns 0x00 (0000ms, 0329ms total)
T1614 000:557 JLINK_WriteReg(R10, 0x00000000)  returns 0x00 (0000ms, 0329ms total)
T1614 000:557 JLINK_WriteReg(R11, 0x00000000)  returns 0x00 (0000ms, 0329ms total)
T1614 000:557 JLINK_WriteReg(R12, 0x00000000)  returns 0x00 (0000ms, 0329ms total)
T1614 000:557 JLINK_WriteReg(R13 (SP), 0x20001000)  returns 0x00 (0000ms, 0329ms total)
T1614 000:557 JLINK_WriteReg(R14, 0x20000001)  returns 0x00 (0000ms, 0329ms total)
T1614 000:558 JLINK_WriteReg(R15 (PC), 0x20000020)  returns 0x00 (0000ms, 0330ms total)
T1614 000:558 JLINK_WriteReg(XPSR, 0x01000000)  returns 0x00 (0000ms, 0330ms total)
T1614 000:558 JLINK_WriteReg(MSP, 0x20001000)  returns 0x00 (0000ms, 0330ms total)
T1614 000:558 JLINK_WriteReg(PSP, 0x20001000)  returns 0x00 (0000ms, 0330ms total)
T1614 000:558 JLINK_WriteReg(CFBP, 0x00000000)  returns 0x00 (0000ms, 0330ms total)
T1614 000:558 JLINK_SetBPEx(Addr = 0x20000000, Type = 0xFFFFFFF2)  returns 0x00000003 (0000ms, 0330ms total)
T1614 000:558 JLINK_Go() -- CPU_ReadMem(4 bytes @ 0xE0001000) (0002ms, 0332ms total)
T1614 000:560 JLINK_IsHalted()  returns FALSE (0001ms, 0333ms total)
T1614 000:565 JLINK_IsHalted() -- CPU_ReadMem(2 bytes @ 0x20000000)  returns TRUE (0003ms, 0335ms total)
T1614 000:568 JLINK_ReadReg(R15 (PC))  returns 0x20000000 (0000ms, 0332ms total)
T1614 000:568 JLINK_ClrBPEx(BPHandle = 0x00000003)  returns 0x00 (0000ms, 0332ms total)
T1614 000:568 JLINK_ReadReg(R0)  returns 0x00000000 (0000ms, 0332ms total)
T1614 000:569 JLINK_WriteReg(R0, 0x08001000)  returns 0x00 (0000ms, 0332ms total)
T1614 000:569 JLINK_WriteReg(R1, 0x00000800)  returns 0x00 (0000ms, 0332ms total)
T1614 000:569 JLINK_WriteReg(R2, 0x000000FF)  returns 0x00 (0000ms, 0332ms total)
T1614 000:569 JLINK_WriteReg(R3, 0x00000000)  returns 0x00 (0000ms, 0332ms total)
T1614 000:569 JLINK_WriteReg(R4, 0x00000000)  returns 0x00 (0000ms, 0332ms total)
T1614 000:569 JLINK_WriteReg(R5, 0x00000000)  returns 0x00 (0000ms, 0332ms total)
T1614 000:569 JLINK_WriteReg(R6, 0x00000000)  returns 0x00 (0000ms, 0332ms total)
T1614 000:569 JLINK_WriteReg(R7, 0x00000000)  returns 0x00 (0000ms, 0332ms total)
T1614 000:569 JLINK_WriteReg(R8, 0x00000000)  returns 0x00 (0000ms, 0332ms total)
T1614 000:569 JLINK_WriteReg(R9, 0x20000160)  returns 0x00 (0000ms, 0332ms total)
T1614 000:569 JLINK_WriteReg(R10, 0x00000000)  returns 0x00 (0000ms, 0332ms total)
T1614 000:569 JLINK_WriteReg(R11, 0x00000000)  returns 0x00 (0000ms, 0332ms total)
T1614 000:569 JLINK_WriteReg(R12, 0x00000000)  returns 0x00 (0000ms, 0332ms total)
T1614 000:569 JLINK_WriteReg(R13 (SP), 0x20001000)  returns 0x00 (0000ms, 0332ms total)
T1614 000:569 JLINK_WriteReg(R14, 0x20000001)  returns 0x00 (0000ms, 0332ms total)
T1614 000:569 JLINK_WriteReg(R15 (PC), 0x20000020)  returns 0x00 (0000ms, 0332ms total)
T1614 000:569 JLINK_WriteReg(XPSR, 0x01000000)  returns 0x00 (0000ms, 0332ms total)
T1614 000:569 JLINK_WriteReg(MSP, 0x20001000)  returns 0x00 (0000ms, 0332ms total)
T1614 000:569 JLINK_WriteReg(PSP, 0x20001000)  returns 0x00 (0000ms, 0332ms total)
T1614 000:569 JLINK_WriteReg(CFBP, 0x00000000)  returns 0x00 (0000ms, 0332ms total)
T1614 000:569 JLINK_SetBPEx(Addr = 0x20000000, Type = 0xFFFFFFF2)  returns 0x00000004 (0000ms, 0332ms total)
T1614 000:569 JLINK_Go() -- CPU_ReadMem(4 bytes @ 0xE0001000) (0002ms, 0334ms total)
T1614 000:571 JLINK_IsHalted()  returns FALSE (0001ms, 0335ms total)
T1614 000:579 JLINK_IsHalted() -- CPU_ReadMem(2 bytes @ 0x20000000)  returns TRUE (0003ms, 0337ms total)
T1614 000:582 JLINK_ReadReg(R15 (PC))  returns 0x20000000 (0000ms, 0334ms total)
T1614 000:582 JLINK_ClrBPEx(BPHandle = 0x00000004)  returns 0x00 (0000ms, 0334ms total)
T1614 000:582 JLINK_ReadReg(R0)  returns 0x00000000 (0000ms, 0334ms total)
T1614 000:583 JLINK_WriteReg(R0, 0x08001800)  returns 0x00 (0000ms, 0334ms total)
T1614 000:583 JLINK_WriteReg(R1, 0x00000800)  returns 0x00 (0000ms, 0334ms total)
T1614 000:583 JLINK_WriteReg(R2, 0x000000FF)  returns 0x00 (0000ms, 0334ms total)
T1614 000:583 JLINK_WriteReg(R3, 0x00000000)  returns 0x00 (0000ms, 0334ms total)
T1614 000:583 JLINK_WriteReg(R4, 0x00000000)  returns 0x00 (0000ms, 0334ms total)
T1614 000:583 JLINK_WriteReg(R5, 0x00000000)  returns 0x00 (0000ms, 0334ms total)
T1614 000:583 JLINK_WriteReg(R6, 0x00000000)  returns 0x00 (0000ms, 0334ms total)
T1614 000:583 JLINK_WriteReg(R7, 0x00000000)  returns 0x00 (0000ms, 0334ms total)
T1614 000:583 JLINK_WriteReg(R8, 0x00000000)  returns 0x00 (0000ms, 0334ms total)
T1614 000:583 JLINK_WriteReg(R9, 0x20000160)  returns 0x00 (0000ms, 0334ms total)
T1614 000:583 JLINK_WriteReg(R10, 0x00000000)  returns 0x00 (0000ms, 0334ms total)
T1614 000:583 JLINK_WriteReg(R11, 0x00000000)  returns 0x00 (0000ms, 0334ms total)
T1614 000:583 JLINK_WriteReg(R12, 0x00000000)  returns 0x00 (0000ms, 0334ms total)
T1614 000:583 JLINK_WriteReg(R13 (SP), 0x20001000)  returns 0x00 (0000ms, 0334ms total)
T1614 000:583 JLINK_WriteReg(R14, 0x20000001)  returns 0x00 (0000ms, 0334ms total)
T1614 000:583 JLINK_WriteReg(R15 (PC), 0x20000020)  returns 0x00 (0000ms, 0334ms total)
T1614 000:583 JLINK_WriteReg(XPSR, 0x01000000)  returns 0x00 (0000ms, 0334ms total)
T1614 000:583 JLINK_WriteReg(MSP, 0x20001000)  returns 0x00 (0000ms, 0334ms total)
T1614 000:583 JLINK_WriteReg(PSP, 0x20001000)  returns 0x00 (0000ms, 0334ms total)
T1614 000:583 JLINK_WriteReg(CFBP, 0x00000000)  returns 0x00 (0000ms, 0334ms total)
T1614 000:583 JLINK_SetBPEx(Addr = 0x20000000, Type = 0xFFFFFFF2)  returns 0x00000005 (0000ms, 0334ms total)
T1614 000:583 JLINK_Go() -- CPU_ReadMem(4 bytes @ 0xE0001000) (0003ms, 0337ms total)
T1614 000:586 JLINK_IsHalted()  returns FALSE (0000ms, 0337ms total)
T1614 000:589 JLINK_IsHalted()  returns FALSE (0000ms, 0337ms total)
T1614 000:591 JLINK_IsHalted() -- CPU_ReadMem(2 bytes @ 0x20000000)  returns TRUE (0004ms, 0341ms total)
T1614 000:595 JLINK_ReadReg(R15 (PC))  returns 0x20000000 (0000ms, 0337ms total)
T1614 000:595 JLINK_ClrBPEx(BPHandle = 0x00000005)  returns 0x00 (0000ms, 0337ms total)
T1614 000:595 JLINK_ReadReg(R0)  returns 0x00000000 (0000ms, 0337ms total)
T1614 000:595 JLINK_WriteReg(R0, 0x08002000)  returns 0x00 (0000ms, 0337ms total)
T1614 000:595 JLINK_WriteReg(R1, 0x00000800)  returns 0x00 (0000ms, 0337ms total)
T1614 000:595 JLINK_WriteReg(R2, 0x000000FF)  returns 0x00 (0000ms, 0337ms total)
T1614 000:595 JLINK_WriteReg(R3, 0x00000000)  returns 0x00 (0000ms, 0337ms total)
T1614 000:595 JLINK_WriteReg(R4, 0x00000000)  returns 0x00 (0000ms, 0337ms total)
T1614 000:595 JLINK_WriteReg(R5, 0x00000000)  returns 0x00 (0000ms, 0337ms total)
T1614 000:595 JLINK_WriteReg(R6, 0x00000000)  returns 0x00 (0000ms, 0337ms total)
T1614 000:595 JLINK_WriteReg(R7, 0x00000000)  returns 0x00 (0000ms, 0337ms total)
T1614 000:595 JLINK_WriteReg(R8, 0x00000000)  returns 0x00 (0000ms, 0337ms total)
T1614 000:595 JLINK_WriteReg(R9, 0x20000160)  returns 0x00 (0000ms, 0337ms total)
T1614 000:595 JLINK_WriteReg(R10, 0x00000000)  returns 0x00 (0000ms, 0337ms total)
T1614 000:595 JLINK_WriteReg(R11, 0x00000000)  returns 0x00 (0000ms, 0337ms total)
T1614 000:595 JLINK_WriteReg(R12, 0x00000000)  returns 0x00 (0000ms, 0337ms total)
T1614 000:595 JLINK_WriteReg(R13 (SP), 0x20001000)  returns 0x00 (0000ms, 0337ms total)
T1614 000:595 JLINK_WriteReg(R14, 0x20000001)  returns 0x00 (0000ms, 0337ms total)
T1614 000:595 JLINK_WriteReg(R15 (PC), 0x20000020)  returns 0x00 (0000ms, 0337ms total)
T1614 000:595 JLINK_WriteReg(XPSR, 0x01000000)  returns 0x00 (0000ms, 0337ms total)
T1614 000:596 JLINK_WriteReg(MSP, 0x20001000)  returns 0x00 (0000ms, 0338ms total)
T1614 000:596 JLINK_WriteReg(PSP, 0x20001000)  returns 0x00 (0000ms, 0338ms total)
T1614 000:596 JLINK_WriteReg(CFBP, 0x00000000)  returns 0x00 (0000ms, 0338ms total)
T1614 000:596 JLINK_SetBPEx(Addr = 0x20000000, Type = 0xFFFFFFF2)  returns 0x00000006 (0000ms, 0338ms total)
T1614 000:596 JLINK_Go() -- CPU_ReadMem(4 bytes @ 0xE0001000) (0002ms, 0340ms total)
T1614 000:598 JLINK_IsHalted()  returns FALSE (0001ms, 0341ms total)
T1614 000:605 JLINK_IsHalted() -- CPU_ReadMem(2 bytes @ 0x20000000)  returns TRUE (0003ms, 0343ms total)
T1614 000:608 JLINK_ReadReg(R15 (PC))  returns 0x20000000 (0000ms, 0340ms total)
T1614 000:608 JLINK_ClrBPEx(BPHandle = 0x00000006)  returns 0x00 (0000ms, 0340ms total)
T1614 000:608 JLINK_ReadReg(R0)  returns 0x00000000 (0000ms, 0340ms total)
T1614 000:609 JLINK_WriteReg(R0, 0x08002800)  returns 0x00 (0000ms, 0341ms total)
T1614 000:609 JLINK_WriteReg(R1, 0x00000800)  returns 0x00 (0000ms, 0341ms total)
T1614 000:609 JLINK_WriteReg(R2, 0x000000FF)  returns 0x00 (0000ms, 0341ms total)
T1614 000:609 JLINK_WriteReg(R3, 0x00000000)  returns 0x00 (0000ms, 0341ms total)
T1614 000:609 JLINK_WriteReg(R4, 0x00000000)  returns 0x00 (0000ms, 0341ms total)
T1614 000:609 JLINK_WriteReg(R5, 0x00000000)  returns 0x00 (0000ms, 0341ms total)
T1614 000:609 JLINK_WriteReg(R6, 0x00000000)  returns 0x00 (0000ms, 0341ms total)
T1614 000:609 JLINK_WriteReg(R7, 0x00000000)  returns 0x00 (0000ms, 0341ms total)
T1614 000:609 JLINK_WriteReg(R8, 0x00000000)  returns 0x00 (0000ms, 0341ms total)
T1614 000:609 JLINK_WriteReg(R9, 0x20000160)  returns 0x00 (0001ms, 0342ms total)
T1614 000:610 JLINK_WriteReg(R10, 0x00000000)  returns 0x00 (0000ms, 0342ms total)
T1614 000:610 JLINK_WriteReg(R11, 0x00000000)  returns 0x00 (0000ms, 0342ms total)
T1614 000:610 JLINK_WriteReg(R12, 0x00000000)  returns 0x00 (0000ms, 0342ms total)
T1614 000:610 JLINK_WriteReg(R13 (SP), 0x20001000)  returns 0x00 (0000ms, 0342ms total)
T1614 000:610 JLINK_WriteReg(R14, 0x20000001)  returns 0x00 (0000ms, 0342ms total)
T1614 000:610 JLINK_WriteReg(R15 (PC), 0x20000020)  returns 0x00 (0000ms, 0342ms total)
T1614 000:610 JLINK_WriteReg(XPSR, 0x01000000)  returns 0x00 (0000ms, 0342ms total)
T1614 000:610 JLINK_WriteReg(MSP, 0x20001000)  returns 0x00 (0000ms, 0342ms total)
T1614 000:610 JLINK_WriteReg(PSP, 0x20001000)  returns 0x00 (0000ms, 0342ms total)
T1614 000:610 JLINK_WriteReg(CFBP, 0x00000000)  returns 0x00 (0000ms, 0342ms total)
T1614 000:610 JLINK_SetBPEx(Addr = 0x20000000, Type = 0xFFFFFFF2)  returns 0x00000007 (0000ms, 0342ms total)
T1614 000:610 JLINK_Go() -- CPU_ReadMem(4 bytes @ 0xE0001000) (0001ms, 0343ms total)
T1614 000:611 JLINK_IsHalted()  returns FALSE (0001ms, 0344ms total)
T1614 000:615 JLINK_IsHalted() -- CPU_ReadMem(2 bytes @ 0x20000000)  returns TRUE (0004ms, 0347ms total)
T1614 000:619 JLINK_ReadReg(R15 (PC))  returns 0x20000000 (0000ms, 0343ms total)
T1614 000:619 JLINK_ClrBPEx(BPHandle = 0x00000007)  returns 0x00 (0000ms, 0343ms total)
T1614 000:619 JLINK_ReadReg(R0)  returns 0x00000000 (0000ms, 0343ms total)
T1614 000:620 JLINK_WriteReg(R0, 0x08003000)  returns 0x00 (0000ms, 0343ms total)
T1614 000:620 JLINK_WriteReg(R1, 0x00000800)  returns 0x00 (0000ms, 0343ms total)
T1614 000:620 JLINK_WriteReg(R2, 0x000000FF)  returns 0x00 (0000ms, 0343ms total)
T1614 000:620 JLINK_WriteReg(R3, 0x00000000)  returns 0x00 (0000ms, 0343ms total)
T1614 000:620 JLINK_WriteReg(R4, 0x00000000)  returns 0x00 (0000ms, 0343ms total)
T1614 000:620 JLINK_WriteReg(R5, 0x00000000)  returns 0x00 (0000ms, 0343ms total)
T1614 000:620 JLINK_WriteReg(R6, 0x00000000)  returns 0x00 (0000ms, 0343ms total)
T1614 000:620 JLINK_WriteReg(R7, 0x00000000)  returns 0x00 (0000ms, 0343ms total)
T1614 000:620 JLINK_WriteReg(R8, 0x00000000)  returns 0x00 (0000ms, 0343ms total)
T1614 000:620 JLINK_WriteReg(R9, 0x20000160)  returns 0x00 (0000ms, 0343ms total)
T1614 000:620 JLINK_WriteReg(R10, 0x00000000)  returns 0x00 (0000ms, 0343ms total)
T1614 000:620 JLINK_WriteReg(R11, 0x00000000)  returns 0x00 (0000ms, 0343ms total)
T1614 000:620 JLINK_WriteReg(R12, 0x00000000)  returns 0x00 (0000ms, 0343ms total)
T1614 000:620 JLINK_WriteReg(R13 (SP), 0x20001000)  returns 0x00 (0000ms, 0343ms total)
T1614 000:620 JLINK_WriteReg(R14, 0x20000001)  returns 0x00 (0000ms, 0343ms total)
T1614 000:620 JLINK_WriteReg(R15 (PC), 0x20000020)  returns 0x00 (0000ms, 0343ms total)
T1614 000:620 JLINK_WriteReg(XPSR, 0x01000000)  returns 0x00 (0000ms, 0343ms total)
T1614 000:620 JLINK_WriteReg(MSP, 0x20001000)  returns 0x00 (0000ms, 0343ms total)
T1614 000:620 JLINK_WriteReg(PSP, 0x20001000)  returns 0x00 (0000ms, 0343ms total)
T1614 000:620 JLINK_WriteReg(CFBP, 0x00000000)  returns 0x00 (0000ms, 0343ms total)
T1614 000:620 JLINK_SetBPEx(Addr = 0x20000000, Type = 0xFFFFFFF2)  returns 0x00000008 (0000ms, 0343ms total)
T1614 000:620 JLINK_Go() -- CPU_ReadMem(4 bytes @ 0xE0001000) (0003ms, 0346ms total)
T1614 000:623 JLINK_IsHalted()  returns FALSE (0000ms, 0346ms total)
T1614 000:626 JLINK_IsHalted() -- CPU_ReadMem(2 bytes @ 0x20000000)  returns TRUE (0003ms, 0349ms total)
T1614 000:629 JLINK_ReadReg(R15 (PC))  returns 0x20000000 (0000ms, 0346ms total)
T1614 000:629 JLINK_ClrBPEx(BPHandle = 0x00000008)  returns 0x00 (0000ms, 0346ms total)
T1614 000:629 JLINK_ReadReg(R0)  returns 0x00000000 (0000ms, 0346ms total)
T1614 000:630 JLINK_WriteReg(R0, 0x08003800)  returns 0x00 (0000ms, 0346ms total)
T1614 000:630 JLINK_WriteReg(R1, 0x00000800)  returns 0x00 (0000ms, 0346ms total)
T1614 000:630 JLINK_WriteReg(R2, 0x000000FF)  returns 0x00 (0000ms, 0346ms total)
T1614 000:630 JLINK_WriteReg(R3, 0x00000000)  returns 0x00 (0000ms, 0346ms total)
T1614 000:630 JLINK_WriteReg(R4, 0x00000000)  returns 0x00 (0000ms, 0346ms total)
T1614 000:630 JLINK_WriteReg(R5, 0x00000000)  returns 0x00 (0000ms, 0346ms total)
T1614 000:630 JLINK_WriteReg(R6, 0x00000000)  returns 0x00 (0000ms, 0346ms total)
T1614 000:630 JLINK_WriteReg(R7, 0x00000000)  returns 0x00 (0000ms, 0346ms total)
T1614 000:630 JLINK_WriteReg(R8, 0x00000000)  returns 0x00 (0000ms, 0346ms total)
T1614 000:630 JLINK_WriteReg(R9, 0x20000160)  returns 0x00 (0000ms, 0346ms total)
T1614 000:630 JLINK_WriteReg(R10, 0x00000000)  returns 0x00 (0000ms, 0346ms total)
T1614 000:630 JLINK_WriteReg(R11, 0x00000000)  returns 0x00 (0000ms, 0346ms total)
T1614 000:630 JLINK_WriteReg(R12, 0x00000000)  returns 0x00 (0000ms, 0346ms total)
T1614 000:630 JLINK_WriteReg(R13 (SP), 0x20001000)  returns 0x00 (0000ms, 0346ms total)
T1614 000:630 JLINK_WriteReg(R14, 0x20000001)  returns 0x00 (0000ms, 0346ms total)
T1614 000:630 JLINK_WriteReg(R15 (PC), 0x20000020)  returns 0x00 (0000ms, 0346ms total)
T1614 000:630 JLINK_WriteReg(XPSR, 0x01000000)  returns 0x00 (0000ms, 0346ms total)
T1614 000:630 JLINK_WriteReg(MSP, 0x20001000)  returns 0x00 (0000ms, 0346ms total)
T1614 000:630 JLINK_WriteReg(PSP, 0x20001000)  returns 0x00 (0000ms, 0346ms total)
T1614 000:630 JLINK_WriteReg(CFBP, 0x00000000)  returns 0x00 (0000ms, 0346ms total)
T1614 000:630 JLINK_SetBPEx(Addr = 0x20000000, Type = 0xFFFFFFF2)  returns 0x00000009 (0001ms, 0347ms total)
T1614 000:631 JLINK_Go() -- CPU_ReadMem(4 bytes @ 0xE0001000) (0002ms, 0349ms total)
T1614 000:633 JLINK_IsHalted()  returns FALSE (0000ms, 0349ms total)
T1614 000:638 JLINK_IsHalted() -- CPU_ReadMem(2 bytes @ 0x20000000)  returns TRUE (0003ms, 0352ms total)
T1614 000:641 JLINK_ReadReg(R15 (PC))  returns 0x20000000 (0000ms, 0349ms total)
T1614 000:641 JLINK_ClrBPEx(BPHandle = 0x00000009)  returns 0x00 (0000ms, 0349ms total)
T1614 000:641 JLINK_ReadReg(R0)  returns 0x00000000 (0000ms, 0349ms total)
T1614 000:642 JLINK_WriteReg(R0, 0x00000001)  returns 0x00 (0000ms, 0349ms total)
T1614 000:642 JLINK_WriteReg(R1, 0x00000800)  returns 0x00 (0000ms, 0349ms total)
T1614 000:642 JLINK_WriteReg(R2, 0x000000FF)  returns 0x00 (0000ms, 0349ms total)
T1614 000:642 JLINK_WriteReg(R3, 0x00000000)  returns 0x00 (0000ms, 0349ms total)
T1614 000:642 JLINK_WriteReg(R4, 0x00000000)  returns 0x00 (0000ms, 0349ms total)
T1614 000:642 JLINK_WriteReg(R5, 0x00000000)  returns 0x00 (0000ms, 0349ms total)
T1614 000:642 JLINK_WriteReg(R6, 0x00000000)  returns 0x00 (0000ms, 0349ms total)
T1614 000:642 JLINK_WriteReg(R7, 0x00000000)  returns 0x00 (0000ms, 0349ms total)
T1614 000:642 JLINK_WriteReg(R8, 0x00000000)  returns 0x00 (0000ms, 0349ms total)
T1614 000:642 JLINK_WriteReg(R9, 0x20000160)  returns 0x00 (0000ms, 0349ms total)
T1614 000:642 JLINK_WriteReg(R10, 0x00000000)  returns 0x00 (0000ms, 0349ms total)
T1614 000:642 JLINK_WriteReg(R11, 0x00000000)  returns 0x00 (0000ms, 0349ms total)
T1614 000:642 JLINK_WriteReg(R12, 0x00000000)  returns 0x00 (0000ms, 0349ms total)
T1614 000:642 JLINK_WriteReg(R13 (SP), 0x20001000)  returns 0x00 (0000ms, 0349ms total)
T1614 000:642 JLINK_WriteReg(R14, 0x20000001)  returns 0x00 (0000ms, 0349ms total)
T1614 000:642 JLINK_WriteReg(R15 (PC), 0x2000006A)  returns 0x00 (0000ms, 0349ms total)
T1614 000:642 JLINK_WriteReg(XPSR, 0x01000000)  returns 0x00 (0000ms, 0349ms total)
T1614 000:642 JLINK_WriteReg(MSP, 0x20001000)  returns 0x00 (0000ms, 0349ms total)
T1614 000:642 JLINK_WriteReg(PSP, 0x20001000)  returns 0x00 (0000ms, 0349ms total)
T1614 000:642 JLINK_WriteReg(CFBP, 0x00000000)  returns 0x00 (0000ms, 0349ms total)
T1614 000:642 JLINK_SetBPEx(Addr = 0x20000000, Type = 0xFFFFFFF2)  returns 0x0000000A (0000ms, 0349ms total)
T1614 000:642 JLINK_Go() -- CPU_ReadMem(4 bytes @ 0xE0001000) (0002ms, 0351ms total)
T1614 000:644 JLINK_IsHalted() -- CPU_ReadMem(2 bytes @ 0x20000000)  returns TRUE (0004ms, 0355ms total)
T1614 000:648 JLINK_ReadReg(R15 (PC))  returns 0x20000000 (0000ms, 0351ms total)
T1614 000:648 JLINK_ClrBPEx(BPHandle = 0x0000000A)  returns 0x00 (0000ms, 0351ms total)
T1614 000:648 JLINK_ReadReg(R0)  returns 0x00000000 (0000ms, 0351ms total)
T1614 000:707 JLINK_WriteMem(0x20000000, 0x0164 Bytes, ...) - Data: 00 BE 0A E0 0D 78 2D 06 68 40 08 24 40 00 00 D3 ... -- CPU_WriteMem(356 bytes @ 0x20000000)  returns 0x164 (0005ms, 0356ms total)
T1614 000:712 JLINK_WriteReg(R0, 0x08000000)  returns 0x00 (0000ms, 0356ms total)
T1614 000:712 JLINK_WriteReg(R1, 0x007A1200)  returns 0x00 (0000ms, 0356ms total)
T1614 000:712 JLINK_WriteReg(R2, 0x00000002)  returns 0x00 (0000ms, 0356ms total)
T1614 000:712 JLINK_WriteReg(R3, 0x00000000)  returns 0x00 (0000ms, 0356ms total)
T1614 000:712 JLINK_WriteReg(R4, 0x00000000)  returns 0x00 (0000ms, 0356ms total)
T1614 000:712 JLINK_WriteReg(R5, 0x00000000)  returns 0x00 (0000ms, 0356ms total)
T1614 000:712 JLINK_WriteReg(R6, 0x00000000)  returns 0x00 (0000ms, 0356ms total)
T1614 000:712 JLINK_WriteReg(R7, 0x00000000)  returns 0x00 (0000ms, 0356ms total)
T1614 000:712 JLINK_WriteReg(R8, 0x00000000)  returns 0x00 (0000ms, 0356ms total)
T1614 000:712 JLINK_WriteReg(R9, 0x20000160)  returns 0x00 (0000ms, 0356ms total)
T1614 000:712 JLINK_WriteReg(R10, 0x00000000)  returns 0x00 (0000ms, 0356ms total)
T1614 000:712 JLINK_WriteReg(R11, 0x00000000)  returns 0x00 (0000ms, 0356ms total)
T1614 000:712 JLINK_WriteReg(R12, 0x00000000)  returns 0x00 (0000ms, 0356ms total)
T1614 000:712 JLINK_WriteReg(R13 (SP), 0x20001000)  returns 0x00 (0000ms, 0356ms total)
T1614 000:712 JLINK_WriteReg(R14, 0x20000001)  returns 0x00 (0000ms, 0356ms total)
T1614 000:712 JLINK_WriteReg(R15 (PC), 0x20000038)  returns 0x00 (0000ms, 0356ms total)
T1614 000:712 JLINK_WriteReg(XPSR, 0x01000000)  returns 0x00 (0000ms, 0356ms total)
T1614 000:712 JLINK_WriteReg(MSP, 0x20001000)  returns 0x00 (0000ms, 0356ms total)
T1614 000:712 JLINK_WriteReg(PSP, 0x20001000)  returns 0x00 (0000ms, 0356ms total)
T1614 000:712 JLINK_WriteReg(CFBP, 0x00000000)  returns 0x00 (0001ms, 0357ms total)
T1614 000:713 JLINK_SetBPEx(Addr = 0x20000000, Type = 0xFFFFFFF2) -- CPU_ReadMem(2 bytes @ 0x20000000)  returns 0x0000000B (0000ms, 0357ms total)
T1614 000:713 JLINK_Go() -- CPU_WriteMem(2 bytes @ 0x20000000) -- CPU_ReadMem(4 bytes @ 0xE0001000) (0004ms, 0361ms total)
T1614 000:717 JLINK_IsHalted() -- CPU_ReadMem(2 bytes @ 0x20000000)  returns TRUE (0003ms, 0364ms total)
T1614 000:720 JLINK_ReadReg(R15 (PC))  returns 0x20000000 (0000ms, 0361ms total)
T1614 000:720 JLINK_ClrBPEx(BPHandle = 0x0000000B)  returns 0x00 (0000ms, 0361ms total)
T1614 000:720 JLINK_ReadReg(R0)  returns 0x00000000 (0000ms, 0361ms total)
T1614 000:721 JLINK_WriteMem(0x20000164, 0x0400 Bytes, ...) - Data: A8 07 00 20 A9 18 00 08 6B 06 00 08 6D 06 00 08 ... -- CPU_WriteMem(1024 bytes @ 0x20000164)  returns 0x400 (0013ms, 0374ms total)
T1614 000:734 JLINK_WriteReg(R0, 0x08000000)  returns 0x00 (0000ms, 0374ms total)
T1614 000:734 JLINK_WriteReg(R1, 0x00000400)  returns 0x00 (0000ms, 0374ms total)
T1614 000:734 JLINK_WriteReg(R2, 0x20000164)  returns 0x00 (0000ms, 0374ms total)
T1614 000:734 JLINK_WriteReg(R3, 0x00000000)  returns 0x00 (0000ms, 0374ms total)
T1614 000:734 JLINK_WriteReg(R4, 0x00000000)  returns 0x00 (0000ms, 0374ms total)
T1614 000:734 JLINK_WriteReg(R5, 0x00000000)  returns 0x00 (0000ms, 0374ms total)
T1614 000:734 JLINK_WriteReg(R6, 0x00000000)  returns 0x00 (0000ms, 0374ms total)
T1614 000:734 JLINK_WriteReg(R7, 0x00000000)  returns 0x00 (0000ms, 0374ms total)
T1614 000:734 JLINK_WriteReg(R8, 0x00000000)  returns 0x00 (0000ms, 0374ms total)
T1614 000:734 JLINK_WriteReg(R9, 0x20000160)  returns 0x00 (0000ms, 0374ms total)
T1614 000:734 JLINK_WriteReg(R10, 0x00000000)  returns 0x00 (0000ms, 0374ms total)
T1614 000:734 JLINK_WriteReg(R11, 0x00000000)  returns 0x00 (0000ms, 0374ms total)
T1614 000:734 JLINK_WriteReg(R12, 0x00000000)  returns 0x00 (0000ms, 0374ms total)
T1614 000:734 JLINK_WriteReg(R13 (SP), 0x20001000)  returns 0x00 (0000ms, 0374ms total)
T1614 000:734 JLINK_WriteReg(R14, 0x20000001)  returns 0x00 (0000ms, 0374ms total)
T1614 000:734 JLINK_WriteReg(R15 (PC), 0x200000F4)  returns 0x00 (0000ms, 0374ms total)
T1614 000:734 JLINK_WriteReg(XPSR, 0x01000000)  returns 0x00 (0000ms, 0374ms total)
T1614 000:734 JLINK_WriteReg(MSP, 0x20001000)  returns 0x00 (0000ms, 0374ms total)
T1614 000:734 JLINK_WriteReg(PSP, 0x20001000)  returns 0x00 (0000ms, 0374ms total)
T1614 000:734 JLINK_WriteReg(CFBP, 0x00000000)  returns 0x00 (0000ms, 0374ms total)
T1614 000:734 JLINK_SetBPEx(Addr = 0x20000000, Type = 0xFFFFFFF2)  returns 0x0000000C (0000ms, 0374ms total)
T1614 000:734 JLINK_Go() -- CPU_ReadMem(4 bytes @ 0xE0001000) (0002ms, 0376ms total)
T1614 000:736 JLINK_IsHalted()  returns FALSE (0001ms, 0377ms total)
T1614 000:745 JLINK_IsHalted()  returns FALSE (0000ms, 0376ms total)
T1614 000:751 JLINK_IsHalted()  returns FALSE (0000ms, 0376ms total)
T1614 000:752 JLINK_IsHalted()  returns FALSE (0000ms, 0376ms total)
T1614 000:756 JLINK_IsHalted()  returns FALSE (0000ms, 0376ms total)
T1614 000:758 JLINK_IsHalted()  returns FALSE (0000ms, 0376ms total)
T1614 000:760 JLINK_IsHalted()  returns FALSE (0000ms, 0376ms total)
T1614 000:762 JLINK_IsHalted()  returns FALSE (0000ms, 0376ms total)
T1614 000:765 JLINK_IsHalted()  returns FALSE (0000ms, 0376ms total)
T1614 000:767 JLINK_IsHalted()  returns FALSE (0000ms, 0376ms total)
T1614 000:769 JLINK_IsHalted() -- CPU_ReadMem(2 bytes @ 0x20000000)  returns TRUE (0004ms, 0380ms total)
T1614 000:773 JLINK_ReadReg(R15 (PC))  returns 0x20000000 (0000ms, 0376ms total)
T1614 000:773 JLINK_ClrBPEx(BPHandle = 0x0000000C)  returns 0x00 (0000ms, 0376ms total)
T1614 000:773 JLINK_ReadReg(R0)  returns 0x00000000 (0000ms, 0376ms total)
T1614 000:773 JLINK_WriteMem(0x20000164, 0x0400 Bytes, ...) - Data: 89 49 08 60 00 F0 47 FB 00 E0 E9 E7 00 BF 00 F0 ... -- CPU_WriteMem(1024 bytes @ 0x20000164)  returns 0x400 (0013ms, 0389ms total)
T1614 000:786 JLINK_WriteReg(R0, 0x08000400)  returns 0x00 (0000ms, 0389ms total)
T1614 000:786 JLINK_WriteReg(R1, 0x00000400)  returns 0x00 (0000ms, 0389ms total)
T1614 000:786 JLINK_WriteReg(R2, 0x20000164)  returns 0x00 (0000ms, 0389ms total)
T1614 000:786 JLINK_WriteReg(R3, 0x00000000)  returns 0x00 (0000ms, 0389ms total)
T1614 000:786 JLINK_WriteReg(R4, 0x00000000)  returns 0x00 (0000ms, 0389ms total)
T1614 000:786 JLINK_WriteReg(R5, 0x00000000)  returns 0x00 (0000ms, 0389ms total)
T1614 000:786 JLINK_WriteReg(R6, 0x00000000)  returns 0x00 (0000ms, 0389ms total)
T1614 000:786 JLINK_WriteReg(R7, 0x00000000)  returns 0x00 (0000ms, 0389ms total)
T1614 000:786 JLINK_WriteReg(R8, 0x00000000)  returns 0x00 (0000ms, 0389ms total)
T1614 000:786 JLINK_WriteReg(R9, 0x20000160)  returns 0x00 (0000ms, 0389ms total)
T1614 000:786 JLINK_WriteReg(R10, 0x00000000)  returns 0x00 (0000ms, 0389ms total)
T1614 000:786 JLINK_WriteReg(R11, 0x00000000)  returns 0x00 (0000ms, 0389ms total)
T1614 000:786 JLINK_WriteReg(R12, 0x00000000)  returns 0x00 (0000ms, 0389ms total)
T1614 000:786 JLINK_WriteReg(R13 (SP), 0x20001000)  returns 0x00 (0000ms, 0389ms total)
T1614 000:786 JLINK_WriteReg(R14, 0x20000001)  returns 0x00 (0000ms, 0389ms total)
T1614 000:786 JLINK_WriteReg(R15 (PC), 0x200000F4)  returns 0x00 (0000ms, 0389ms total)
T1614 000:786 JLINK_WriteReg(XPSR, 0x01000000)  returns 0x00 (0000ms, 0389ms total)
T1614 000:786 JLINK_WriteReg(MSP, 0x20001000)  returns 0x00 (0000ms, 0389ms total)
T1614 000:786 JLINK_WriteReg(PSP, 0x20001000)  returns 0x00 (0000ms, 0389ms total)
T1614 000:786 JLINK_WriteReg(CFBP, 0x00000000)  returns 0x00 (0000ms, 0389ms total)
T1614 000:786 JLINK_SetBPEx(Addr = 0x20000000, Type = 0xFFFFFFF2)  returns 0x0000000D (0000ms, 0389ms total)
T1614 000:786 JLINK_Go() -- CPU_ReadMem(4 bytes @ 0xE0001000) (0003ms, 0392ms total)
T1614 000:789 JLINK_IsHalted()  returns FALSE (0000ms, 0392ms total)
T1614 000:791 JLINK_IsHalted()  returns FALSE (0001ms, 0393ms total)
T1614 000:794 JLINK_IsHalted()  returns FALSE (0000ms, 0392ms total)
T1614 000:800 JLINK_IsHalted()  returns FALSE (0000ms, 0392ms total)
T1614 000:802 JLINK_IsHalted()  returns FALSE (0001ms, 0393ms total)
T1614 000:805 JLINK_IsHalted()  returns FALSE (0000ms, 0392ms total)
T1614 000:807 JLINK_IsHalted()  returns FALSE (0000ms, 0392ms total)
T1614 000:809 JLINK_IsHalted()  returns FALSE (0000ms, 0392ms total)
T1614 000:811 JLINK_IsHalted()  returns FALSE (0000ms, 0392ms total)
T1614 000:813 JLINK_IsHalted()  returns FALSE (0000ms, 0392ms total)
T1614 000:815 JLINK_IsHalted()  returns FALSE (0000ms, 0392ms total)
T1614 000:817 JLINK_IsHalted()  returns FALSE (0000ms, 0392ms total)
T1614 000:819 JLINK_IsHalted()  returns FALSE (0000ms, 0392ms total)
T1614 000:821 JLINK_IsHalted() -- CPU_ReadMem(2 bytes @ 0x20000000)  returns TRUE (0004ms, 0396ms total)
T1614 000:825 JLINK_ReadReg(R15 (PC))  returns 0x20000000 (0001ms, 0393ms total)
T1614 000:826 JLINK_ClrBPEx(BPHandle = 0x0000000D)  returns 0x00 (0000ms, 0393ms total)
T1614 000:826 JLINK_ReadReg(R0)  returns 0x00000000 (0000ms, 0393ms total)
T1614 000:827 JLINK_WriteMem(0x20000164, 0x0400 Bytes, ...) - Data: 5B 68 03 F4 00 33 23 B1 14 4B 43 43 12 4C 23 60 ... -- CPU_WriteMem(1024 bytes @ 0x20000164)  returns 0x400 (0012ms, 0405ms total)
T1614 000:839 JLINK_WriteReg(R0, 0x08000800)  returns 0x00 (0000ms, 0405ms total)
T1614 000:839 JLINK_WriteReg(R1, 0x00000400)  returns 0x00 (0000ms, 0405ms total)
T1614 000:839 JLINK_WriteReg(R2, 0x20000164)  returns 0x00 (0000ms, 0405ms total)
T1614 000:839 JLINK_WriteReg(R3, 0x00000000)  returns 0x00 (0000ms, 0405ms total)
T1614 000:839 JLINK_WriteReg(R4, 0x00000000)  returns 0x00 (0000ms, 0405ms total)
T1614 000:839 JLINK_WriteReg(R5, 0x00000000)  returns 0x00 (0000ms, 0405ms total)
T1614 000:839 JLINK_WriteReg(R6, 0x00000000)  returns 0x00 (0000ms, 0405ms total)
T1614 000:839 JLINK_WriteReg(R7, 0x00000000)  returns 0x00 (0000ms, 0405ms total)
T1614 000:839 JLINK_WriteReg(R8, 0x00000000)  returns 0x00 (0000ms, 0405ms total)
T1614 000:839 JLINK_WriteReg(R9, 0x20000160)  returns 0x00 (0000ms, 0405ms total)
T1614 000:839 JLINK_WriteReg(R10, 0x00000000)  returns 0x00 (0000ms, 0405ms total)
T1614 000:839 JLINK_WriteReg(R11, 0x00000000)  returns 0x00 (0000ms, 0405ms total)
T1614 000:839 JLINK_WriteReg(R12, 0x00000000)  returns 0x00 (0000ms, 0405ms total)
T1614 000:839 JLINK_WriteReg(R13 (SP), 0x20001000)  returns 0x00 (0000ms, 0405ms total)
T1614 000:839 JLINK_WriteReg(R14, 0x20000001)  returns 0x00 (0000ms, 0405ms total)
T1614 000:839 JLINK_WriteReg(R15 (PC), 0x200000F4)  returns 0x00 (0000ms, 0405ms total)
T1614 000:839 JLINK_WriteReg(XPSR, 0x01000000)  returns 0x00 (0000ms, 0405ms total)
T1614 000:839 JLINK_WriteReg(MSP, 0x20001000)  returns 0x00 (0000ms, 0405ms total)
T1614 000:839 JLINK_WriteReg(PSP, 0x20001000)  returns 0x00 (0000ms, 0405ms total)
T1614 000:839 JLINK_WriteReg(CFBP, 0x00000000)  returns 0x00 (0000ms, 0405ms total)
T1614 000:839 JLINK_SetBPEx(Addr = 0x20000000, Type = 0xFFFFFFF2)  returns 0x0000000E (0000ms, 0405ms total)
T1614 000:839 JLINK_Go() -- CPU_ReadMem(4 bytes @ 0xE0001000) (0004ms, 0409ms total)
T1614 000:843 JLINK_IsHalted()  returns FALSE (0001ms, 0410ms total)
T1614 000:846 JLINK_IsHalted()  returns FALSE (0000ms, 0409ms total)
T1614 000:848 JLINK_IsHalted()  returns FALSE (0000ms, 0409ms total)
T1614 000:850 JLINK_IsHalted()  returns FALSE (0000ms, 0409ms total)
T1614 000:851 JLINK_IsHalted()  returns FALSE (0000ms, 0409ms total)
T1614 000:853 JLINK_IsHalted()  returns FALSE (0000ms, 0409ms total)
T1614 000:855 JLINK_IsHalted()  returns FALSE (0000ms, 0409ms total)
T1614 000:858 JLINK_IsHalted()  returns FALSE (0000ms, 0409ms total)
T1614 000:861 JLINK_IsHalted()  returns FALSE (0000ms, 0409ms total)
T1614 000:863 JLINK_IsHalted()  returns FALSE (0000ms, 0409ms total)
T1614 000:865 JLINK_IsHalted()  returns FALSE (0000ms, 0409ms total)
T1614 000:867 JLINK_IsHalted()  returns FALSE (0000ms, 0409ms total)
T1614 000:869 JLINK_IsHalted()  returns FALSE (0000ms, 0409ms total)
T1614 000:872 JLINK_IsHalted()  returns FALSE (0000ms, 0409ms total)
T1614 000:874 JLINK_IsHalted() -- CPU_ReadMem(2 bytes @ 0x20000000)  returns TRUE (0003ms, 0412ms total)
T1614 000:877 JLINK_ReadReg(R15 (PC))  returns 0x20000000 (0000ms, 0409ms total)
T1614 000:877 JLINK_ClrBPEx(BPHandle = 0x0000000E)  returns 0x00 (0000ms, 0409ms total)
T1614 000:877 JLINK_ReadReg(R0)  returns 0x00000000 (0001ms, 0410ms total)
T1614 000:878 JLINK_WriteMem(0x20000164, 0x0400 Bytes, ...) - Data: 8D F8 0C 00 8D F8 0D 00 4F F4 60 20 04 90 00 20 ... -- CPU_WriteMem(1024 bytes @ 0x20000164)  returns 0x400 (0013ms, 0423ms total)
T1614 000:891 JLINK_WriteReg(R0, 0x08000C00)  returns 0x00 (0000ms, 0423ms total)
T1614 000:891 JLINK_WriteReg(R1, 0x00000400)  returns 0x00 (0000ms, 0423ms total)
T1614 000:891 JLINK_WriteReg(R2, 0x20000164)  returns 0x00 (0000ms, 0423ms total)
T1614 000:891 JLINK_WriteReg(R3, 0x00000000)  returns 0x00 (0000ms, 0423ms total)
T1614 000:891 JLINK_WriteReg(R4, 0x00000000)  returns 0x00 (0000ms, 0423ms total)
T1614 000:891 JLINK_WriteReg(R5, 0x00000000)  returns 0x00 (0000ms, 0423ms total)
T1614 000:891 JLINK_WriteReg(R6, 0x00000000)  returns 0x00 (0000ms, 0423ms total)
T1614 000:891 JLINK_WriteReg(R7, 0x00000000)  returns 0x00 (0000ms, 0423ms total)
T1614 000:891 JLINK_WriteReg(R8, 0x00000000)  returns 0x00 (0000ms, 0423ms total)
T1614 000:891 JLINK_WriteReg(R9, 0x20000160)  returns 0x00 (0000ms, 0423ms total)
T1614 000:891 JLINK_WriteReg(R10, 0x00000000)  returns 0x00 (0000ms, 0423ms total)
T1614 000:891 JLINK_WriteReg(R11, 0x00000000)  returns 0x00 (0000ms, 0423ms total)
T1614 000:891 JLINK_WriteReg(R12, 0x00000000)  returns 0x00 (0000ms, 0423ms total)
T1614 000:891 JLINK_WriteReg(R13 (SP), 0x20001000)  returns 0x00 (0000ms, 0423ms total)
T1614 000:891 JLINK_WriteReg(R14, 0x20000001)  returns 0x00 (0000ms, 0423ms total)
T1614 000:891 JLINK_WriteReg(R15 (PC), 0x200000F4)  returns 0x00 (0000ms, 0423ms total)
T1614 000:891 JLINK_WriteReg(XPSR, 0x01000000)  returns 0x00 (0000ms, 0423ms total)
T1614 000:891 JLINK_WriteReg(MSP, 0x20001000)  returns 0x00 (0000ms, 0423ms total)
T1614 000:891 JLINK_WriteReg(PSP, 0x20001000)  returns 0x00 (0000ms, 0423ms total)
T1614 000:891 JLINK_WriteReg(CFBP, 0x00000000)  returns 0x00 (0000ms, 0423ms total)
T1614 000:891 JLINK_SetBPEx(Addr = 0x20000000, Type = 0xFFFFFFF2)  returns 0x0000000F (0000ms, 0423ms total)
T1614 000:891 JLINK_Go() -- CPU_ReadMem(4 bytes @ 0xE0001000) (0003ms, 0426ms total)
T1614 000:895 JLINK_IsHalted()  returns FALSE (0000ms, 0426ms total)
T1614 000:897 JLINK_IsHalted()  returns FALSE (0000ms, 0426ms total)
T1614 000:899 JLINK_IsHalted()  returns FALSE (0000ms, 0426ms total)
T1614 000:901 JLINK_IsHalted()  returns FALSE (0000ms, 0426ms total)
T1614 000:903 JLINK_IsHalted()  returns FALSE (0000ms, 0426ms total)
T1614 000:905 JLINK_IsHalted()  returns FALSE (0001ms, 0427ms total)
T1614 000:911 JLINK_IsHalted()  returns FALSE (0000ms, 0426ms total)
T1614 000:913 JLINK_IsHalted()  returns FALSE (0000ms, 0426ms total)
T1614 000:915 JLINK_IsHalted()  returns FALSE (0000ms, 0426ms total)
T1614 000:917 JLINK_IsHalted()  returns FALSE (0000ms, 0426ms total)
T1614 000:919 JLINK_IsHalted()  returns FALSE (0000ms, 0426ms total)
T1614 000:921 JLINK_IsHalted()  returns FALSE (0000ms, 0426ms total)
T1614 000:923 JLINK_IsHalted()  returns FALSE (0000ms, 0426ms total)
T1614 000:925 JLINK_IsHalted() -- CPU_ReadMem(2 bytes @ 0x20000000)  returns TRUE (0004ms, 0430ms total)
T1614 000:929 JLINK_ReadReg(R15 (PC))  returns 0x20000000 (0000ms, 0426ms total)
T1614 000:929 JLINK_ClrBPEx(BPHandle = 0x0000000F)  returns 0x00 (0000ms, 0426ms total)
T1614 000:929 JLINK_ReadReg(R0)  returns 0x00000000 (0000ms, 0426ms total)
T1614 000:929 JLINK_WriteMem(0x20000164, 0x0400 Bytes, ...) - Data: B3 48 00 78 00 F0 80 00 50 B1 B2 48 00 78 00 F0 ... -- CPU_WriteMem(1024 bytes @ 0x20000164)  returns 0x400 (0013ms, 0439ms total)
T1614 000:942 JLINK_WriteReg(R0, 0x08001000)  returns 0x00 (0000ms, 0439ms total)
T1614 000:942 JLINK_WriteReg(R1, 0x00000400)  returns 0x00 (0000ms, 0439ms total)
T1614 000:942 JLINK_WriteReg(R2, 0x20000164)  returns 0x00 (0000ms, 0439ms total)
T1614 000:942 JLINK_WriteReg(R3, 0x00000000)  returns 0x00 (0000ms, 0439ms total)
T1614 000:942 JLINK_WriteReg(R4, 0x00000000)  returns 0x00 (0000ms, 0439ms total)
T1614 000:942 JLINK_WriteReg(R5, 0x00000000)  returns 0x00 (0000ms, 0439ms total)
T1614 000:942 JLINK_WriteReg(R6, 0x00000000)  returns 0x00 (0000ms, 0439ms total)
T1614 000:942 JLINK_WriteReg(R7, 0x00000000)  returns 0x00 (0000ms, 0439ms total)
T1614 000:942 JLINK_WriteReg(R8, 0x00000000)  returns 0x00 (0000ms, 0439ms total)
T1614 000:942 JLINK_WriteReg(R9, 0x20000160)  returns 0x00 (0000ms, 0439ms total)
T1614 000:942 JLINK_WriteReg(R10, 0x00000000)  returns 0x00 (0000ms, 0439ms total)
T1614 000:942 JLINK_WriteReg(R11, 0x00000000)  returns 0x00 (0000ms, 0439ms total)
T1614 000:942 JLINK_WriteReg(R12, 0x00000000)  returns 0x00 (0000ms, 0439ms total)
T1614 000:942 JLINK_WriteReg(R13 (SP), 0x20001000)  returns 0x00 (0000ms, 0439ms total)
T1614 000:942 JLINK_WriteReg(R14, 0x20000001)  returns 0x00 (0000ms, 0439ms total)
T1614 000:942 JLINK_WriteReg(R15 (PC), 0x200000F4)  returns 0x00 (0000ms, 0439ms total)
T1614 000:942 JLINK_WriteReg(XPSR, 0x01000000)  returns 0x00 (0000ms, 0439ms total)
T1614 000:942 JLINK_WriteReg(MSP, 0x20001000)  returns 0x00 (0000ms, 0439ms total)
T1614 000:942 JLINK_WriteReg(PSP, 0x20001000)  returns 0x00 (0000ms, 0439ms total)
T1614 000:942 JLINK_WriteReg(CFBP, 0x00000000)  returns 0x00 (0000ms, 0439ms total)
T1614 000:942 JLINK_SetBPEx(Addr = 0x20000000, Type = 0xFFFFFFF2)  returns 0x00000010 (0000ms, 0439ms total)
T1614 000:942 JLINK_Go() -- CPU_ReadMem(4 bytes @ 0xE0001000) (0003ms, 0442ms total)
T1614 000:945 JLINK_IsHalted()  returns FALSE (0000ms, 0442ms total)
T1614 000:947 JLINK_IsHalted()  returns FALSE (0000ms, 0442ms total)
T1614 000:949 JLINK_IsHalted()  returns FALSE (0000ms, 0442ms total)
T1614 000:951 JLINK_IsHalted()  returns FALSE (0000ms, 0442ms total)
T1614 000:953 JLINK_IsHalted()  returns FALSE (0000ms, 0442ms total)
T1614 000:955 JLINK_IsHalted()  returns FALSE (0000ms, 0442ms total)
T1614 000:958 JLINK_IsHalted()  returns FALSE (0000ms, 0442ms total)
T1614 000:960 JLINK_IsHalted()  returns FALSE (0000ms, 0442ms total)
T1614 000:962 JLINK_IsHalted()  returns FALSE (0000ms, 0442ms total)
T1614 000:964 JLINK_IsHalted()  returns FALSE (0000ms, 0442ms total)
T1614 000:966 JLINK_IsHalted()  returns FALSE (0000ms, 0442ms total)
T1614 000:968 JLINK_IsHalted()  returns FALSE (0001ms, 0443ms total)
T1614 000:973 JLINK_IsHalted()  returns FALSE (0000ms, 0442ms total)
T1614 000:975 JLINK_IsHalted()  returns FALSE (0000ms, 0442ms total)
T1614 000:977 JLINK_IsHalted() -- CPU_ReadMem(2 bytes @ 0x20000000)  returns TRUE (0004ms, 0446ms total)
T1614 000:981 JLINK_ReadReg(R15 (PC))  returns 0x20000000 (0000ms, 0442ms total)
T1614 000:981 JLINK_ClrBPEx(BPHandle = 0x00000010)  returns 0x00 (0000ms, 0442ms total)
T1614 000:981 JLINK_ReadReg(R0)  returns 0x00000000 (0000ms, 0442ms total)
T1614 000:982 JLINK_WriteMem(0x20000164, 0x0400 Bytes, ...) - Data: 00 78 00 F0 80 00 00 28 61 D0 00 BF 4E 48 00 78 ... -- CPU_WriteMem(1024 bytes @ 0x20000164)  returns 0x400 (0012ms, 0454ms total)
T1614 000:994 JLINK_WriteReg(R0, 0x08001400)  returns 0x00 (0000ms, 0454ms total)
T1614 000:994 JLINK_WriteReg(R1, 0x00000400)  returns 0x00 (0000ms, 0454ms total)
